
T3188 000:297 SEGGER J-Link V4.98e Log File (0001ms, 0270ms total)
T3188 000:297 DLL Compiled: May  5 2015 11:00:52 (0001ms, 0270ms total)
T3188 000:297 Logging started @ 2019-08-16 14:46 (0001ms, 0270ms total)
T3188 000:298 JLINK_SetWarnOutHandler(...) (0000ms, 0270ms total)
T3188 000:298 JLINK_OpenEx(...)
Firmware: J-Link V9 compiled Oct  6 2017 16:38:28
Hardware: V9.20
Feature(s): RDI, GDB, FlashDL, FlashBP, JFlash, RDDI  returns O.K. (0269ms, 0539ms total)
T3188 000:567 JLINK_SetErrorOutHandler(...) (0000ms, 0539ms total)
T3188 000:567 JLINK_ExecCommand("ProjectFile = "C:\Users\Administrator\Desktop\SmartCabinetv20_fixbug\USER\JLinkSettings.ini"", ...)  returns 0x00 (0001ms, 0540ms total)
T3188 000:568 JLINK_ExecCommand("Device = STM32F103ZE", ...)Device "STM32F103ZE" selected.  returns 0x00 (0001ms, 0541ms total)
T3188 000:569 JLINK_ExecCommand("DisableConnectionTimeout", ...)  returns 0x01 (0000ms, 0541ms total)
T3188 000:569 JLINK_GetHardwareVersion()  returns 0x16760 (0000ms, 0541ms total)
T3188 000:569 JLINK_GetDLLVersion()  returns 49805 (0000ms, 0541ms total)
T3188 000:569 JLINK_GetFirmwareString(...) (0000ms, 0541ms total)
T3188 000:570 JLINK_GetDLLVersion()  returns 49805 (0000ms, 0541ms total)
T3188 000:570 JLINK_GetCompileDateTime() (0000ms, 0541ms total)
T3188 000:570 JLINK_GetFirmwareString(...) (0000ms, 0541ms total)
T3188 000:570 JLINK_GetHardwareVersion()  returns 0x16760 (0000ms, 0541ms total)
T3188 000:571 JLINK_TIF_Select(JLINKARM_TIF_SWD)  returns 0x00 (0001ms, 0542ms total)
T3188 000:572 JLINK_SetSpeed(50000) (0000ms, 0542ms total)
T3188 000:572 JLINK_GetId() >0x108 TIF> >0x108 TIF> >0x108 TIF>Found SWD-DP with ID 0x1BA01477SWD speed too high. Reduced from 12000 kHz to 8100 kHz for stability >0x0D TIF> >0x28 TIF> >0x0D TIF> >0x28 TIF> >0x0D TIF> >0x21 TIF> >0x0D TIF> >0x28 TIF> >0x0D TIF> >0x28 TIF> >0x0D TIF> >0x28 TIF> >0x0D TIF> >0x21 TIF> >0x0D TIF> >0x21 TIF> >0x0D TIF> >0x28 TIF> >0x0D TIF> >0x21 TIF> >0x0D TIF> >0x21 TIF> >0x108 TIF>Found SWD-DP with ID 0x1BA01477 >0x0D TIF> >0x21 TIF> >0x0D TIF> >0x28 TIF> >0x0D TIF>
 >0x28 TIF> >0x0D TIF> >0x21 TIF> >0x0D TIF> >0x28 TIF> >0x0D TIF> >0x21 TIF> >0x0D TIF> >0x21 TIF> >0x0D TIF> >0x21 TIF> >0x0D TIF> >0x21 TIF> >0x0D TIF> >0x28 TIF> >0x0D TIF> >0x28 TIF> >0x0D TIF> >0x21 TIF> >0x0D TIF> >0x28 TIF> >0x0D TIF> >0x28 TIF> >0x0D TIF> >0x28 TIF> >0x0D TIF> >0x21 TIF> >0x0D TIF> >0x21 TIF> >0x0D TIF> >0x28 TIF> >0x0D TIF> >0x21 TIF> >0x0D TIF> >0x21 TIF>Found Cortex-M3 r1p1, Little endian. -- CPU_WriteMem(4 bytes @ 0xE0002000) -- CPU_ReadMem(4 bytes @ 0xE000EDF0)
 -- CPU_ReadMem(4 bytes @ 0xE0002000)FPUnit: 6 code (BP) slots and 2 literal slots -- CPU_ReadMem(4 bytes @ 0xE000EDFC) -- CPU_ReadMem(4 bytes @ 0xE0001000) -- CPU_WriteMem(4 bytes @ 0xE0001000) -- CPU_ReadMem(4 bytes @ 0xE000ED88) -- CPU_WriteMem(4 bytes @ 0xE000ED88) -- CPU_ReadMem(4 bytes @ 0xE000ED88) -- CPU_WriteMem(4 bytes @ 0xE000ED88)CoreSight components:ROMTbl 0 @ E00FF000 -- CPU_ReadMem(16 bytes @ 0xE00FF000) -- CPU_ReadMem(16 bytes @ 0xE000EFF0) -- CPU_ReadMem(16 bytes @ 0xE000EFE0)
ROMTbl 0 [0]: FFF0F000, CID: B105E00D, PID: 001BB000 SCS -- CPU_ReadMem(16 bytes @ 0xE0001FF0) -- CPU_ReadMem(16 bytes @ 0xE0001FE0)ROMTbl 0 [1]: FFF02000, CID: B105E00D, PID: 001BB002 DWT -- CPU_ReadMem(16 bytes @ 0xE0002FF0) -- CPU_ReadMem(16 bytes @ 0xE0002FE0)ROMTbl 0 [2]: FFF03000, CID: B105E00D, PID: 000BB003 FPB -- CPU_ReadMem(16 bytes @ 0xE0000FF0) -- CPU_ReadMem(16 bytes @ 0xE0000FE0)ROMTbl 0 [3]: FFF01000, CID: B105E00D, PID: 001BB001 ITM -- CPU_ReadMem(16 bytes @ 0xE00FF010)
 -- CPU_ReadMem(16 bytes @ 0xE0040FF0) -- CPU_ReadMem(16 bytes @ 0xE0040FE0)ROMTbl 0 [4]: FFF41000, CID: B105900D, PID: 001BB923 TPIU-Lite -- CPU_ReadMem(16 bytes @ 0xE0041FF0) -- CPU_ReadMem(16 bytes @ 0xE0041FE0)ROMTbl 0 [5]: FFF42000, CID: B105900D, PID: 101BB924 ETM-M3 >0x0D TIF> >0x21 TIF>  returns 0x1BA01477 (0125ms, 0667ms total)
T3188 000:697 JLINK_GetDLLVersion()  returns 49805 (0000ms, 0667ms total)
T3188 000:697 JLINK_CORE_GetFound()  returns 0x30000FF (0000ms, 0667ms total)
T3188 000:697 JLINK_GetDebugInfo(0x100) -- Value=0xE00FF003  returns 0x00 (0000ms, 0667ms total)
T3188 000:698 JLINK_ReadMem (0xE00FF000, 0x0020 Bytes, ...) -- CPU is running -- CPU_ReadMem(32 bytes @ 0xE00FF000) - Data: 03 F0 F0 FF 03 20 F0 FF 03 30 F0 FF 03 10 F0 FF ...  returns 0x00 (0001ms, 0668ms total)
T3188 000:699 JLINK_ReadMem (0xE000EFF0, 0x0010 Bytes, ...) -- CPU is running -- CPU_ReadMem(16 bytes @ 0xE000EFF0) - Data: 0D 00 00 00 E0 00 00 00 05 00 00 00 B1 00 00 00  returns 0x00 (0000ms, 0668ms total)
T3188 000:699 JLINK_ReadMem (0xE000EFD0, 0x0020 Bytes, ...) -- CPU is running -- CPU_ReadMem(32 bytes @ 0xE000EFD0) - Data: 04 00 00 00 00 00 00 00 00 00 00 00 00 00 00 00 ...  returns 0x00 (0001ms, 0669ms total)
T3188 000:700 JLINK_ReadMem (0xE0001FF0, 0x0010 Bytes, ...) -- CPU is running -- CPU_ReadMem(16 bytes @ 0xE0001FF0) - Data: 0D 00 00 00 E0 00 00 00 05 00 00 00 B1 00 00 00  returns 0x00 (0000ms, 0669ms total)
T3188 000:700 JLINK_ReadMem (0xE0001FD0, 0x0020 Bytes, ...) -- CPU is running -- CPU_ReadMem(32 bytes @ 0xE0001FD0) - Data: 04 00 00 00 00 00 00 00 00 00 00 00 00 00 00 00 ...  returns 0x00 (0000ms, 0669ms total)
T3188 000:700 JLINK_ReadMem (0xE0002FF0, 0x0010 Bytes, ...) -- CPU is running -- CPU_ReadMem(16 bytes @ 0xE0002FF0) - Data: 0D 00 00 00 E0 00 00 00 05 00 00 00 B1 00 00 00  returns 0x00 (0001ms, 0670ms total)
T3188 000:701 JLINK_ReadMem (0xE0002FD0, 0x0020 Bytes, ...) -- CPU is running -- CPU_ReadMem(32 bytes @ 0xE0002FD0) - Data: 04 00 00 00 00 00 00 00 00 00 00 00 00 00 00 00 ...  returns 0x00 (0000ms, 0670ms total)
T3188 000:701 JLINK_ReadMem (0xE0000FF0, 0x0010 Bytes, ...) -- CPU is running -- CPU_ReadMem(16 bytes @ 0xE0000FF0) - Data: 0D 00 00 00 E0 00 00 00 05 00 00 00 B1 00 00 00  returns 0x00 (0000ms, 0670ms total)
T3188 000:701 JLINK_ReadMem (0xE0000FD0, 0x0020 Bytes, ...) -- CPU is running -- CPU_ReadMem(32 bytes @ 0xE0000FD0) - Data: 04 00 00 00 00 00 00 00 00 00 00 00 00 00 00 00 ...  returns 0x00 (0001ms, 0671ms total)
T3188 000:702 JLINK_ReadMem (0xE0040FF0, 0x0010 Bytes, ...) -- CPU is running -- CPU_ReadMem(16 bytes @ 0xE0040FF0) - Data: 0D 00 00 00 90 00 00 00 05 00 00 00 B1 00 00 00  returns 0x00 (0000ms, 0671ms total)
T3188 000:702 JLINK_ReadMem (0xE0040FD0, 0x0020 Bytes, ...) -- CPU is running -- CPU_ReadMem(32 bytes @ 0xE0040FD0) - Data: 04 00 00 00 00 00 00 00 00 00 00 00 00 00 00 00 ...  returns 0x00 (0001ms, 0672ms total)
T3188 000:703 JLINK_ReadMem (0xE0041FF0, 0x0010 Bytes, ...) -- CPU is running -- CPU_ReadMem(16 bytes @ 0xE0041FF0) - Data: 0D 00 00 00 90 00 00 00 05 00 00 00 B1 00 00 00  returns 0x00 (0000ms, 0672ms total)
T3188 000:703 JLINK_ReadMem (0xE0041FD0, 0x0020 Bytes, ...) -- CPU is running -- CPU_ReadMem(32 bytes @ 0xE0041FD0) - Data: 04 00 00 00 00 00 00 00 00 00 00 00 00 00 00 00 ...  returns 0x00 (0000ms, 0672ms total)
T3188 000:703 JLINK_ReadMemU32(0xE000ED00, 0x0001 Items, ...) -- CPU is running -- CPU_ReadMem(4 bytes @ 0xE000ED00) - Data: 31 C2 1F 41  returns 0x01 (0001ms, 0673ms total)
T3188 000:704 JLINK_SetResetType(JLINKARM_RESET_TYPE_NORMAL)  returns JLINKARM_RESET_TYPE_NORMAL (0000ms, 0673ms total)
T3188 000:704 JLINK_Reset() -- CPU is running -- CPU_WriteMem(4 bytes @ 0xE000EDF0) -- CPU is running -- CPU_WriteMem(4 bytes @ 0xE000EDFC) >0x35 TIF> -- CPU is running -- CPU_WriteMem(4 bytes @ 0xE000ED0C) -- CPU is running -- CPU_ReadMem(4 bytes @ 0xE000EDF0) -- CPU is running -- CPU_ReadMem(4 bytes @ 0xE000EDF0) -- CPU is running -- CPU_WriteMem(4 bytes @ 0xE000EDF0) -- CPU is running -- CPU_WriteMem(4 bytes @ 0xE000EDFC) -- CPU is running -- CPU_ReadMem(4 bytes @ 0xE000EDF0)
 -- CPU_WriteMem(4 bytes @ 0xE0002000) -- CPU_ReadMem(4 bytes @ 0xE000EDFC) -- CPU_ReadMem(4 bytes @ 0xE0001000) (0015ms, 0688ms total)
T3188 000:719 JLINK_ReadReg(R15 (PC))  returns 0x08000350 (0000ms, 0688ms total)
T3188 000:719 JLINK_ReadReg(XPSR)  returns 0x01000000 (0000ms, 0688ms total)
T3188 000:719 JLINK_Halt()  returns 0x00 (0000ms, 0688ms total)
T3188 000:719 JLINK_IsHalted()  returns TRUE (0000ms, 0688ms total)
T3188 000:719 JLINK_ReadMemU32(0xE000EDF0, 0x0001 Items, ...) -- CPU_ReadMem(4 bytes @ 0xE000EDF0) - Data: 03 00 03 00  returns 0x01 (0000ms, 0688ms total)
T3188 000:719 JLINK_WriteU32(0xE000EDF0, 0xA05F0003) -- CPU_WriteMem(4 bytes @ 0xE000EDF0)  returns 0x00 (0000ms, 0688ms total)
T3188 000:719 JLINK_WriteU32(0xE000EDFC, 0x01000000) -- CPU_WriteMem(4 bytes @ 0xE000EDFC)  returns 0x00 (0001ms, 0689ms total)
T3188 000:720 JLINK_GetHWStatus(...)  returns 0x00 (0000ms, 0689ms total)
T3188 000:721 JLINK_GetNumBPUnits(Type = 0xFFFFFF00)  returns 0x06 (0000ms, 0689ms total)
T3188 000:721 JLINK_GetNumBPUnits(Type = 0xF0)  returns 0x2000 (0000ms, 0689ms total)
T3188 000:721 JLINK_GetNumWPUnits()  returns 0x04 (0000ms, 0689ms total)
T3188 000:721 JLINK_GetSpeed()  returns 0x1770 (0000ms, 0689ms total)
T3188 000:721 JLINK_ReadMemU32(0xE000E004, 0x0001 Items, ...) -- CPU_ReadMem(4 bytes @ 0xE000E004) - Data: 01 00 00 00  returns 0x01 (0001ms, 0690ms total)
T3188 000:722 JLINK_ReadMemU32(0xE000E004, 0x0001 Items, ...) -- CPU_ReadMem(4 bytes @ 0xE000E004) - Data: 01 00 00 00  returns 0x01 (0000ms, 0690ms total)
T3188 000:722 JLINK_WriteMem(0xE0001000, 0x001C Bytes, ...) - Data: 01 00 00 00 00 00 00 00 00 00 00 00 00 00 00 00 ... -- CPU_WriteMem(28 bytes @ 0xE0001000)  returns 0x1C (0001ms, 0691ms total)
T3188 000:723 JLINK_ReadMem (0xE0001000, 0x001C Bytes, ...) -- CPU_ReadMem(28 bytes @ 0xE0001000) - Data: 01 00 00 40 00 00 00 00 00 00 00 00 00 00 00 00 ...  returns 0x00 (0000ms, 0691ms total)
T3188 000:723 JLINK_ReadReg(R15 (PC))  returns 0x08000350 (0000ms, 0691ms total)
T3188 000:723 JLINK_ReadReg(XPSR)  returns 0x01000000 (0000ms, 0691ms total)
T3188 000:941 JLINK_SetResetType(JLINKARM_RESET_TYPE_NORMAL)  returns JLINKARM_RESET_TYPE_NORMAL (0000ms, 0691ms total)
T3188 000:941 JLINK_Reset() -- CPU_WriteMem(4 bytes @ 0xE000EDF0) -- CPU_WriteMem(4 bytes @ 0xE000EDFC) >0x35 TIF> -- CPU_WriteMem(4 bytes @ 0xE000ED0C) -- CPU_ReadMem(4 bytes @ 0xE000EDF0) -- CPU_ReadMem(4 bytes @ 0xE000EDF0) -- CPU_WriteMem(4 bytes @ 0xE000EDF0) -- CPU_WriteMem(4 bytes @ 0xE000EDFC) -- CPU is running -- CPU_ReadMem(4 bytes @ 0xE000EDF0) -- CPU_WriteMem(4 bytes @ 0xE0002000) -- CPU_ReadMem(4 bytes @ 0xE000EDFC) -- CPU_ReadMem(4 bytes @ 0xE0001000) (0015ms, 0706ms total)
T3188 000:957 JLINK_ReadReg(R15 (PC))  returns 0x08000350 (0000ms, 0706ms total)
T3188 000:957 JLINK_ReadReg(XPSR)  returns 0x01000000 (0000ms, 0706ms total)
T3188 000:965 JLINK_ReadMem (0x08000350, 0x003C Bytes, ...) -- CPU_ReadMem(128 bytes @ 0x08000340) -- Updating C cache (128 bytes @ 0x08000340) -- Read from C cache (60 bytes @ 0x08000350) - Data: 09 48 80 47 09 48 00 47 FE E7 FE E7 FE E7 FE E7 ...  returns 0x00 (0002ms, 0708ms total)
T3188 002:175 JLINK_ReadMem (0x00000000, 0x00AA Bytes, ...) -- CPU_ReadMem(4 bytes @ 0x00000004) -- CPU_ReadMem(192 bytes @ 0x08000000) -- Updating C cache (192 bytes @ 0x08000000) -- Read from C cache (170 bytes @ 0x08000000) - Data: F0 73 00 20 51 03 00 08 E5 73 00 08 15 46 00 08 ...  returns 0x00 (0002ms, 0710ms total)
T3188 003:160 JLINK_ReadMem (0x20002566, 0x0020 Bytes, ...) -- CPU_ReadMem(128 bytes @ 0x20002540) -- Updating C cache (128 bytes @ 0x20002540) -- Read from C cache (32 bytes @ 0x20002566) - Data: 00 00 00 00 00 00 00 00 00 00 00 00 00 00 00 00 ...  returns 0x00 (0001ms, 0711ms total)
T3188 003:166 JLINK_ReadMem (0x20006408, 0x0020 Bytes, ...) -- CPU_ReadMem(64 bytes @ 0x20006400) -- Updating C cache (64 bytes @ 0x20006400) -- Read from C cache (32 bytes @ 0x20006408) - Data: 00 00 00 00 00 00 00 00 00 00 00 00 00 00 00 00 ...  returns 0x00 (0001ms, 0712ms total)
T3188 003:181 JLINK_ReadMem (0x20000118, 0x0004 Bytes, ...) -- CPU_ReadMem(64 bytes @ 0x20000100) -- Updating C cache (64 bytes @ 0x20000100) -- Read from C cache (4 bytes @ 0x20000118) - Data: 00 00 00 00  returns 0x00 (0001ms, 0713ms total)
T3188 003:204 JLINK_ReadMem (0x20000114, 0x0004 Bytes, ...) -- Read from C cache (4 bytes @ 0x20000114) - Data: 00 00 00 00  returns 0x00 (0000ms, 0713ms total)
T3188 003:209 JLINK_ReadMem (0x20000BB8, 0x0005 Bytes, ...) -- CPU_ReadMem(64 bytes @ 0x20000B80) -- Updating C cache (64 bytes @ 0x20000B80) -- Read from C cache (5 bytes @ 0x20000BB8) - Data: 00 00 00 00 00  returns 0x00 (0000ms, 0713ms total)
T3188 003:233 JLINK_ReadMem (0x2000397E, 0x0012 Bytes, ...) -- CPU_ReadMem(128 bytes @ 0x20003940) -- Updating C cache (128 bytes @ 0x20003940) -- Read from C cache (18 bytes @ 0x2000397E) - Data: 00 00 00 00 00 00 00 00 00 00 00 00 00 00 00 00 ...  returns 0x00 (0001ms, 0714ms total)
T3188 003:236 JLINK_ReadMem (0x20003990, 0x0012 Bytes, ...) -- Read from C cache (18 bytes @ 0x20003990) - Data: 00 00 00 00 00 00 00 00 00 00 00 00 00 00 00 00 ...  returns 0x00 (0000ms, 0714ms total)
T3188 003:245 JLINK_ReadMem (0x20002048, 0x0001 Bytes, ...) -- CPU_ReadMem(64 bytes @ 0x20002040) -- Updating C cache (64 bytes @ 0x20002040) -- Read from C cache (1 bytes @ 0x20002048) - Data: 45  returns 0x00 (0000ms, 0714ms total)
T3188 003:253 JLINK_ReadMem (0x200000C0, 0x0002 Bytes, ...) -- CPU_ReadMem(64 bytes @ 0x200000C0) -- Updating C cache (64 bytes @ 0x200000C0) -- Read from C cache (2 bytes @ 0x200000C0) - Data: 00 00  returns 0x00 (0001ms, 0715ms total)
T3188 003:256 JLINK_ReadMem (0x20002329, 0x0001 Bytes, ...) -- CPU_ReadMem(64 bytes @ 0x20002300) -- Updating C cache (64 bytes @ 0x20002300) -- Read from C cache (1 bytes @ 0x20002329) - Data: 00  returns 0x00 (0000ms, 0715ms total)
T3188 003:274 JLINK_ReadMem (0x20000BA8, 0x0005 Bytes, ...) -- Read from C cache (5 bytes @ 0x20000BA8) - Data: 00 00 00 00 00  returns 0x00 (0000ms, 0715ms total)
T3188 003:326 JLINK_ReadMem (0x20000BC0, 0x0004 Bytes, ...) -- CPU_ReadMem(64 bytes @ 0x20000BC0) -- Updating C cache (64 bytes @ 0x20000BC0) -- Read from C cache (4 bytes @ 0x20000BC0) - Data: B8 0B 00 20  returns 0x00 (0001ms, 0716ms total)
T3188 003:327 JLINK_ReadMem (0x20000BB8, 0x0020 Bytes, ...) -- Read from C cache (32 bytes @ 0x20000BB8) - Data: 00 00 00 00 00 00 00 00 B8 0B 00 20 BD 0B 00 20 ...  returns 0x00 (0000ms, 0716ms total)
T3188 003:329 JLINK_ReadMem (0x20000BB9, 0x0020 Bytes, ...) -- Read from C cache (32 bytes @ 0x20000BB9) - Data: 00 00 00 00 00 00 00 B8 0B 00 20 BD 0B 00 20 00 ...  returns 0x00 (0000ms, 0716ms total)
T3188 003:337 JLINK_ReadMem (0x20000BBD, 0x0020 Bytes, ...) -- Read from C cache (32 bytes @ 0x20000BBD) - Data: 00 00 00 B8 0B 00 20 BD 0B 00 20 00 00 00 00 00 ...  returns 0x00 (0000ms, 0716ms total)
T3188 003:340 JLINK_ReadMem (0x20002328, 0x0001 Bytes, ...) -- Read from C cache (1 bytes @ 0x20002328) - Data: 00  returns 0x00 (0000ms, 0716ms total)
T3648 003:412 JLINK_SetBPEx(Addr = 0x08016940, Type = 0xFFFFFFF2)  returns 0x00000001 (0000ms, 0716ms total)
T3648 003:412 JLINK_Go() -- CPU_WriteMem(4 bytes @ 0xE0002000) -- CPU_ReadMem(4 bytes @ 0xE0001000) -- CPU_WriteMem(4 bytes @ 0xE0002008) -- CPU_WriteMem(4 bytes @ 0xE000200C) -- CPU_WriteMem(4 bytes @ 0xE0002010) -- CPU_WriteMem(4 bytes @ 0xE0002014) -- CPU_WriteMem(4 bytes @ 0xE0002018) -- CPU_WriteMem(4 bytes @ 0xE000201C) -- CPU_WriteMem(4 bytes @ 0xE0001004) (0003ms, 0719ms total)
T3648 003:516 JLINK_IsHalted()  returns TRUE (0001ms, 0720ms total)
T3648 003:517 JLINK_Halt()  returns 0x00 (0000ms, 0719ms total)
T3648 003:517 JLINK_IsHalted()  returns TRUE (0000ms, 0719ms total)
T3648 003:517 JLINK_IsHalted()  returns TRUE (0000ms, 0719ms total)
T3648 003:517 JLINK_IsHalted()  returns TRUE (0000ms, 0719ms total)
T3648 003:518 JLINK_ReadReg(R15 (PC))  returns 0x08016940 (0000ms, 0719ms total)
T3648 003:518 JLINK_ReadReg(XPSR)  returns 0x61000000 (0000ms, 0719ms total)
T3648 003:518 JLINK_ClrBPEx(BPHandle = 0x00000001)  returns 0x00 (0000ms, 0719ms total)
T3648 003:518 JLINK_ReadMemU32(0xE000ED30, 0x0001 Items, ...) -- CPU_ReadMem(4 bytes @ 0xE000ED30) - Data: 02 00 00 00  returns 0x01 (0000ms, 0719ms total)
T3648 003:518 JLINK_ReadMemU32(0xE0001028, 0x0001 Items, ...) -- CPU_ReadMem(4 bytes @ 0xE0001028) - Data: 00 00 00 00  returns 0x01 (0000ms, 0719ms total)
T3648 003:518 JLINK_ReadMemU32(0xE0001038, 0x0001 Items, ...) -- CPU_ReadMem(4 bytes @ 0xE0001038) - Data: 00 02 00 00  returns 0x01 (0001ms, 0720ms total)
T3648 003:519 JLINK_ReadMemU32(0xE0001048, 0x0001 Items, ...) -- CPU_ReadMem(4 bytes @ 0xE0001048) - Data: 00 00 00 00  returns 0x01 (0000ms, 0720ms total)
T3648 003:519 JLINK_ReadMemU32(0xE0001058, 0x0001 Items, ...) -- CPU_ReadMem(4 bytes @ 0xE0001058) - Data: 00 00 00 00  returns 0x01 (0000ms, 0720ms total)
T3648 003:519 JLINK_ReadReg(R0)  returns 0x20006DF0 (0000ms, 0720ms total)
T3648 003:519 JLINK_ReadReg(R1)  returns 0x20006FF0 (0000ms, 0720ms total)
T3648 003:519 JLINK_ReadReg(R2)  returns 0x20006FF0 (0000ms, 0720ms total)
T3648 003:519 JLINK_ReadReg(R3)  returns 0x20006FF0 (0000ms, 0720ms total)
T3648 003:519 JLINK_ReadReg(R4)  returns 0x00000000 (0000ms, 0720ms total)
T3648 003:519 JLINK_ReadReg(R5)  returns 0x20006D90 (0000ms, 0720ms total)
T3648 003:520 JLINK_ReadReg(R6)  returns 0x00000000 (0000ms, 0721ms total)
T3648 003:520 JLINK_ReadReg(R7)  returns 0x00000000 (0000ms, 0721ms total)
T3648 003:520 JLINK_ReadReg(R8)  returns 0x00000000 (0000ms, 0721ms total)
T3648 003:520 JLINK_ReadReg(R9)  returns 0x20000160 (0000ms, 0721ms total)
T3648 003:520 JLINK_ReadReg(R10)  returns 0x0805C634 (0000ms, 0721ms total)
T3648 003:520 JLINK_ReadReg(R11)  returns 0x00000000 (0000ms, 0721ms total)
T3648 003:520 JLINK_ReadReg(R12)  returns 0x20006DD0 (0000ms, 0721ms total)
T3648 003:520 JLINK_ReadReg(R13 (SP))  returns 0x200073F0 (0000ms, 0721ms total)
T3648 003:520 JLINK_ReadReg(R14)  returns 0x080002A7 (0000ms, 0721ms total)
T3648 003:520 JLINK_ReadReg(R15 (PC))  returns 0x08016940 (0000ms, 0721ms total)
T3648 003:520 JLINK_ReadReg(XPSR)  returns 0x61000000 (0000ms, 0721ms total)
T3648 003:520 JLINK_ReadReg(MSP)  returns 0x200073F0 (0000ms, 0721ms total)
T3648 003:520 JLINK_ReadReg(PSP)  returns 0x20001000 (0000ms, 0721ms total)
T3648 003:520 JLINK_ReadReg(CFBP)  returns 0x00000000 (0000ms, 0721ms total)
T3188 003:520 JLINK_ReadMem (0x08016940, 0x003C Bytes, ...) -- CPU_ReadMem(64 bytes @ 0x08016940) -- Updating C cache (64 bytes @ 0x08016940) -- Read from C cache (60 bytes @ 0x08016940) - Data: 1C B5 C7 A5 C9 A6 0A 24 00 BF 4F F4 40 70 F0 F7 ...  returns 0x00 (0001ms, 0722ms total)
T3648 005:177 JLINK_Step() -- Read from C cache (2 bytes @ 0x08016940) -- CPU_ReadMem(4 bytes @ 0xE0001004) -- CPU_WriteMem(16 bytes @ 0x200073E0) -- Simulated  returns 0x00 (0001ms, 0723ms total)
T3648 005:178 JLINK_ReadReg(R15 (PC))  returns 0x08016942 (0000ms, 0723ms total)
T3648 005:178 JLINK_ReadReg(XPSR)  returns 0x61000000 (0000ms, 0723ms total)
T3648 005:178 JLINK_ReadReg(R0)  returns 0x20006DF0 (0000ms, 0723ms total)
T3648 005:178 JLINK_ReadReg(R1)  returns 0x20006FF0 (0000ms, 0723ms total)
T3648 005:178 JLINK_ReadReg(R2)  returns 0x20006FF0 (0000ms, 0723ms total)
T3648 005:178 JLINK_ReadReg(R3)  returns 0x20006FF0 (0000ms, 0723ms total)
T3648 005:178 JLINK_ReadReg(R4)  returns 0x00000000 (0000ms, 0723ms total)
T3648 005:178 JLINK_ReadReg(R5)  returns 0x20006D90 (0000ms, 0723ms total)
T3648 005:178 JLINK_ReadReg(R6)  returns 0x00000000 (0000ms, 0723ms total)
T3648 005:178 JLINK_ReadReg(R7)  returns 0x00000000 (0000ms, 0723ms total)
T3648 005:178 JLINK_ReadReg(R8)  returns 0x00000000 (0000ms, 0723ms total)
T3648 005:178 JLINK_ReadReg(R9)  returns 0x20000160 (0001ms, 0724ms total)
T3648 005:179 JLINK_ReadReg(R10)  returns 0x0805C634 (0000ms, 0724ms total)
T3648 005:179 JLINK_ReadReg(R11)  returns 0x00000000 (0000ms, 0724ms total)
T3648 005:179 JLINK_ReadReg(R12)  returns 0x20006DD0 (0000ms, 0724ms total)
T3648 005:179 JLINK_ReadReg(R13 (SP))  returns 0x200073E0 (0000ms, 0724ms total)
T3648 005:179 JLINK_ReadReg(R14)  returns 0x080002A7 (0000ms, 0724ms total)
T3648 005:179 JLINK_ReadReg(R15 (PC))  returns 0x08016942 (0000ms, 0724ms total)
T3648 005:179 JLINK_ReadReg(XPSR)  returns 0x61000000 (0000ms, 0724ms total)
T3648 005:179 JLINK_ReadReg(MSP)  returns 0x200073E0 (0000ms, 0724ms total)
T3648 005:179 JLINK_ReadReg(PSP)  returns 0x20001000 (0000ms, 0724ms total)
T3648 005:179 JLINK_ReadReg(CFBP)  returns 0x00000000 (0000ms, 0724ms total)
T3648 005:353 JLINK_ReadMem (0x08016942, 0x0002 Bytes, ...) -- Read from C cache (2 bytes @ 0x08016942) - Data: C7 A5  returns 0x00 (0000ms, 0724ms total)
T3648 005:353 JLINK_ReadMem (0x08016944, 0x003C Bytes, ...) -- Read from C cache (60 bytes @ 0x08016944) - Data: C9 A6 0A 24 00 BF 4F F4 40 70 F0 F7 83 FD F5 F7 ...  returns 0x00 (0000ms, 0724ms total)
T3648 005:353 JLINK_Step() -- Read from C cache (2 bytes @ 0x08016942) -- Simulated  returns 0x00 (0000ms, 0724ms total)
T3648 005:353 JLINK_ReadReg(R15 (PC))  returns 0x08016944 (0000ms, 0724ms total)
T3648 005:353 JLINK_ReadReg(XPSR)  returns 0x61000000 (0000ms, 0724ms total)
T3648 005:353 JLINK_ReadReg(R0)  returns 0x20006DF0 (0000ms, 0724ms total)
T3648 005:353 JLINK_ReadReg(R1)  returns 0x20006FF0 (0000ms, 0724ms total)
T3648 005:353 JLINK_ReadReg(R2)  returns 0x20006FF0 (0000ms, 0724ms total)
T3648 005:353 JLINK_ReadReg(R3)  returns 0x20006FF0 (0000ms, 0724ms total)
T3648 005:353 JLINK_ReadReg(R4)  returns 0x00000000 (0000ms, 0724ms total)
T3648 005:353 JLINK_ReadReg(R5)  returns 0x08016C60 (0000ms, 0724ms total)
T3648 005:353 JLINK_ReadReg(R6)  returns 0x00000000 (0000ms, 0724ms total)
T3648 005:353 JLINK_ReadReg(R7)  returns 0x00000000 (0000ms, 0724ms total)
T3648 005:353 JLINK_ReadReg(R8)  returns 0x00000000 (0000ms, 0724ms total)
T3648 005:353 JLINK_ReadReg(R9)  returns 0x20000160 (0000ms, 0724ms total)
T3648 005:353 JLINK_ReadReg(R10)  returns 0x0805C634 (0000ms, 0724ms total)
T3648 005:353 JLINK_ReadReg(R11)  returns 0x00000000 (0000ms, 0724ms total)
T3648 005:354 JLINK_ReadReg(R12)  returns 0x20006DD0 (0000ms, 0724ms total)
T3648 005:354 JLINK_ReadReg(R13 (SP))  returns 0x200073E0 (0000ms, 0724ms total)
T3648 005:354 JLINK_ReadReg(R14)  returns 0x080002A7 (0000ms, 0724ms total)
T3648 005:354 JLINK_ReadReg(R15 (PC))  returns 0x08016944 (0000ms, 0724ms total)
T3648 005:354 JLINK_ReadReg(XPSR)  returns 0x61000000 (0000ms, 0724ms total)
T3648 005:354 JLINK_ReadReg(MSP)  returns 0x200073E0 (0000ms, 0724ms total)
T3648 005:354 JLINK_ReadReg(PSP)  returns 0x20001000 (0000ms, 0724ms total)
T3648 005:354 JLINK_ReadReg(CFBP)  returns 0x00000000 (0000ms, 0724ms total)
T3188 005:354 JLINK_ReadMem (0x08016944, 0x003C Bytes, ...) -- Read from C cache (60 bytes @ 0x08016944) - Data: C9 A6 0A 24 00 BF 4F F4 40 70 F0 F7 83 FD F5 F7 ...  returns 0x00 (0000ms, 0724ms total)
T3648 005:577 JLINK_Step() -- Read from C cache (2 bytes @ 0x08016944) -- Simulated  returns 0x00 (0000ms, 0724ms total)
T3648 005:577 JLINK_ReadReg(R15 (PC))  returns 0x08016946 (0000ms, 0724ms total)
T3648 005:577 JLINK_ReadReg(XPSR)  returns 0x61000000 (0000ms, 0724ms total)
T3648 005:577 JLINK_ReadReg(R0)  returns 0x20006DF0 (0000ms, 0724ms total)
T3648 005:577 JLINK_ReadReg(R1)  returns 0x20006FF0 (0000ms, 0724ms total)
T3648 005:577 JLINK_ReadReg(R2)  returns 0x20006FF0 (0000ms, 0724ms total)
T3648 005:577 JLINK_ReadReg(R3)  returns 0x20006FF0 (0000ms, 0724ms total)
T3648 005:577 JLINK_ReadReg(R4)  returns 0x00000000 (0000ms, 0724ms total)
T3648 005:577 JLINK_ReadReg(R5)  returns 0x08016C60 (0000ms, 0724ms total)
T3648 005:577 JLINK_ReadReg(R6)  returns 0x08016C6C (0000ms, 0724ms total)
T3648 005:577 JLINK_ReadReg(R7)  returns 0x00000000 (0000ms, 0724ms total)
T3648 005:577 JLINK_ReadReg(R8)  returns 0x00000000 (0000ms, 0724ms total)
T3648 005:577 JLINK_ReadReg(R9)  returns 0x20000160 (0001ms, 0725ms total)
T3648 005:578 JLINK_ReadReg(R10)  returns 0x0805C634 (0000ms, 0725ms total)
T3648 005:578 JLINK_ReadReg(R11)  returns 0x00000000 (0000ms, 0725ms total)
T3648 005:578 JLINK_ReadReg(R12)  returns 0x20006DD0 (0000ms, 0725ms total)
T3648 005:578 JLINK_ReadReg(R13 (SP))  returns 0x200073E0 (0000ms, 0725ms total)
T3648 005:578 JLINK_ReadReg(R14)  returns 0x080002A7 (0000ms, 0725ms total)
T3648 005:578 JLINK_ReadReg(R15 (PC))  returns 0x08016946 (0000ms, 0725ms total)
T3648 005:578 JLINK_ReadReg(XPSR)  returns 0x61000000 (0000ms, 0725ms total)
T3648 005:578 JLINK_ReadReg(MSP)  returns 0x200073E0 (0000ms, 0725ms total)
T3648 005:578 JLINK_ReadReg(PSP)  returns 0x20001000 (0000ms, 0725ms total)
T3648 005:578 JLINK_ReadReg(CFBP)  returns 0x00000000 (0000ms, 0725ms total)
T3648 005:810 JLINK_ReadMem (0x08016946, 0x0002 Bytes, ...) -- Read from C cache (2 bytes @ 0x08016946) - Data: 0A 24  returns 0x00 (0000ms, 0725ms total)
T3648 005:810 JLINK_ReadMem (0x08016948, 0x003C Bytes, ...) -- CPU_ReadMem(64 bytes @ 0x08016980) -- Updating C cache (64 bytes @ 0x08016980) -- Read from C cache (60 bytes @ 0x08016948) - Data: 00 BF 4F F4 40 70 F0 F7 83 FD F5 F7 B5 FE F0 F7 ...  returns 0x00 (0000ms, 0725ms total)
T3648 005:810 JLINK_Step() -- Read from C cache (2 bytes @ 0x08016946) -- Simulated  returns 0x00 (0001ms, 0726ms total)
T3648 005:811 JLINK_ReadReg(R15 (PC))  returns 0x08016948 (0000ms, 0726ms total)
T3648 005:811 JLINK_ReadReg(XPSR)  returns 0x21000000 (0000ms, 0726ms total)
T3648 005:811 JLINK_ReadReg(R0)  returns 0x20006DF0 (0000ms, 0726ms total)
T3648 005:811 JLINK_ReadReg(R1)  returns 0x20006FF0 (0000ms, 0726ms total)
T3648 005:811 JLINK_ReadReg(R2)  returns 0x20006FF0 (0000ms, 0726ms total)
T3648 005:811 JLINK_ReadReg(R3)  returns 0x20006FF0 (0000ms, 0726ms total)
T3648 005:811 JLINK_ReadReg(R4)  returns 0x0000000A (0000ms, 0726ms total)
T3648 005:811 JLINK_ReadReg(R5)  returns 0x08016C60 (0000ms, 0726ms total)
T3648 005:811 JLINK_ReadReg(R6)  returns 0x08016C6C (0000ms, 0726ms total)
T3648 005:811 JLINK_ReadReg(R7)  returns 0x00000000 (0000ms, 0726ms total)
T3648 005:811 JLINK_ReadReg(R8)  returns 0x00000000 (0000ms, 0726ms total)
T3648 005:811 JLINK_ReadReg(R9)  returns 0x20000160 (0000ms, 0726ms total)
T3648 005:811 JLINK_ReadReg(R10)  returns 0x0805C634 (0000ms, 0726ms total)
T3648 005:811 JLINK_ReadReg(R11)  returns 0x00000000 (0000ms, 0726ms total)
T3648 005:811 JLINK_ReadReg(R12)  returns 0x20006DD0 (0000ms, 0726ms total)
T3648 005:811 JLINK_ReadReg(R13 (SP))  returns 0x200073E0 (0000ms, 0726ms total)
T3648 005:811 JLINK_ReadReg(R14)  returns 0x080002A7 (0000ms, 0726ms total)
T3648 005:812 JLINK_ReadReg(R15 (PC))  returns 0x08016948 (0000ms, 0726ms total)
T3648 005:812 JLINK_ReadReg(XPSR)  returns 0x21000000 (0000ms, 0726ms total)
T3648 005:812 JLINK_ReadReg(MSP)  returns 0x200073E0 (0000ms, 0726ms total)
T3648 005:812 JLINK_ReadReg(PSP)  returns 0x20001000 (0000ms, 0726ms total)
T3648 005:812 JLINK_ReadReg(CFBP)  returns 0x00000000 (0000ms, 0726ms total)
T3188 005:812 JLINK_ReadMem (0x08016948, 0x003C Bytes, ...) -- Read from C cache (60 bytes @ 0x08016948) - Data: 00 BF 4F F4 40 70 F0 F7 83 FD F5 F7 B5 FE F0 F7 ...  returns 0x00 (0000ms, 0726ms total)
T3648 006:001 JLINK_Step() -- Read from C cache (2 bytes @ 0x08016948) -- Simulated  returns 0x00 (0000ms, 0726ms total)
T3648 006:001 JLINK_ReadReg(R15 (PC))  returns 0x0801694A (0000ms, 0726ms total)
T3648 006:001 JLINK_ReadReg(XPSR)  returns 0x21000000 (0000ms, 0726ms total)
T3648 006:002 JLINK_ReadReg(R0)  returns 0x20006DF0 (0000ms, 0726ms total)
T3648 006:002 JLINK_ReadReg(R1)  returns 0x20006FF0 (0000ms, 0726ms total)
T3648 006:002 JLINK_ReadReg(R2)  returns 0x20006FF0 (0000ms, 0726ms total)
T3648 006:002 JLINK_ReadReg(R3)  returns 0x20006FF0 (0000ms, 0726ms total)
T3648 006:002 JLINK_ReadReg(R4)  returns 0x0000000A (0000ms, 0726ms total)
T3648 006:002 JLINK_ReadReg(R5)  returns 0x08016C60 (0000ms, 0726ms total)
T3648 006:002 JLINK_ReadReg(R6)  returns 0x08016C6C (0000ms, 0726ms total)
T3648 006:002 JLINK_ReadReg(R7)  returns 0x00000000 (0000ms, 0726ms total)
T3648 006:002 JLINK_ReadReg(R8)  returns 0x00000000 (0000ms, 0726ms total)
T3648 006:002 JLINK_ReadReg(R9)  returns 0x20000160 (0000ms, 0726ms total)
T3648 006:002 JLINK_ReadReg(R10)  returns 0x0805C634 (0000ms, 0726ms total)
T3648 006:002 JLINK_ReadReg(R11)  returns 0x00000000 (0000ms, 0726ms total)
T3648 006:002 JLINK_ReadReg(R12)  returns 0x20006DD0 (0000ms, 0726ms total)
T3648 006:002 JLINK_ReadReg(R13 (SP))  returns 0x200073E0 (0000ms, 0726ms total)
T3648 006:002 JLINK_ReadReg(R14)  returns 0x080002A7 (0000ms, 0726ms total)
T3648 006:002 JLINK_ReadReg(R15 (PC))  returns 0x0801694A (0000ms, 0726ms total)
T3648 006:002 JLINK_ReadReg(XPSR)  returns 0x21000000 (0000ms, 0726ms total)
T3648 006:002 JLINK_ReadReg(MSP)  returns 0x200073E0 (0000ms, 0726ms total)
T3648 006:002 JLINK_ReadReg(PSP)  returns 0x20001000 (0000ms, 0726ms total)
T3648 006:002 JLINK_ReadReg(CFBP)  returns 0x00000000 (0000ms, 0726ms total)
T3648 006:177 JLINK_ReadMem (0x0801694A, 0x0002 Bytes, ...) -- Read from C cache (2 bytes @ 0x0801694A) - Data: 4F F4  returns 0x00 (0000ms, 0726ms total)
T3648 006:177 JLINK_ReadMem (0x0801694C, 0x003C Bytes, ...) -- Read from C cache (60 bytes @ 0x0801694C) - Data: 40 70 F0 F7 83 FD F5 F7 B5 FE F0 F7 71 FE EE F7 ...  returns 0x00 (0000ms, 0726ms total)
T3648 006:177 JLINK_Step() -- Read from C cache (2 bytes @ 0x0801694A) -- Read from C cache (2 bytes @ 0x0801694C) -- Simulated  returns 0x00 (0000ms, 0726ms total)
T3648 006:177 JLINK_ReadReg(R15 (PC))  returns 0x0801694E (0000ms, 0726ms total)
T3648 006:177 JLINK_ReadReg(XPSR)  returns 0x21000000 (0000ms, 0726ms total)
T3648 006:177 JLINK_SetBPEx(Addr = 0x08016952, Type = 0xFFFFFFF2)  returns 0x00000002 (0000ms, 0726ms total)
T3648 006:177 JLINK_Go() -- CPU_WriteMem(4 bytes @ 0xE0002000) -- CPU_ReadMem(4 bytes @ 0xE0001000) -- CPU_WriteMem(4 bytes @ 0xE0002008) -- CPU_WriteMem(4 bytes @ 0xE0001004) (0003ms, 0729ms total)
T3648 006:281 JLINK_IsHalted()  returns TRUE (0002ms, 0731ms total)
T3648 006:283 JLINK_Halt()  returns 0x00 (0000ms, 0729ms total)
T3648 006:283 JLINK_IsHalted()  returns TRUE (0000ms, 0729ms total)
T3648 006:283 JLINK_IsHalted()  returns TRUE (0000ms, 0729ms total)
T3648 006:283 JLINK_IsHalted()  returns TRUE (0000ms, 0729ms total)
T3648 006:283 JLINK_ReadReg(R15 (PC))  returns 0x08016952 (0000ms, 0729ms total)
T3648 006:283 JLINK_ReadReg(XPSR)  returns 0x21000000 (0000ms, 0729ms total)
T3648 006:283 JLINK_ClrBPEx(BPHandle = 0x00000002)  returns 0x00 (0000ms, 0729ms total)
T3648 006:283 JLINK_ReadMemU32(0xE000ED30, 0x0001 Items, ...) -- CPU_ReadMem(4 bytes @ 0xE000ED30) - Data: 02 00 00 00  returns 0x01 (0000ms, 0729ms total)
T3648 006:283 JLINK_ReadMemU32(0xE0001028, 0x0001 Items, ...) -- CPU_ReadMem(4 bytes @ 0xE0001028) - Data: 00 00 00 00  returns 0x01 (0000ms, 0729ms total)
T3648 006:283 JLINK_ReadMemU32(0xE0001038, 0x0001 Items, ...) -- CPU_ReadMem(4 bytes @ 0xE0001038) - Data: 00 02 00 00  returns 0x01 (0001ms, 0730ms total)
T3648 006:284 JLINK_ReadMemU32(0xE0001048, 0x0001 Items, ...) -- CPU_ReadMem(4 bytes @ 0xE0001048) - Data: 00 00 00 00  returns 0x01 (0000ms, 0730ms total)
T3648 006:284 JLINK_ReadMemU32(0xE0001058, 0x0001 Items, ...) -- CPU_ReadMem(4 bytes @ 0xE0001058) - Data: 00 00 00 00  returns 0x01 (0000ms, 0730ms total)
T3648 006:284 JLINK_ReadReg(R0)  returns 0x00000300 (0000ms, 0730ms total)
T3648 006:284 JLINK_ReadReg(R1)  returns 0x05FA0300 (0000ms, 0730ms total)
T3648 006:284 JLINK_ReadReg(R2)  returns 0xE000ED0C (0000ms, 0730ms total)
T3648 006:284 JLINK_ReadReg(R3)  returns 0x20006FF0 (0000ms, 0730ms total)
T3648 006:284 JLINK_ReadReg(R4)  returns 0x0000000A (0001ms, 0731ms total)
T3648 006:285 JLINK_ReadReg(R5)  returns 0x08016C60 (0000ms, 0731ms total)
T3648 006:285 JLINK_ReadReg(R6)  returns 0x08016C6C (0000ms, 0731ms total)
T3648 006:285 JLINK_ReadReg(R7)  returns 0x00000000 (0000ms, 0731ms total)
T3648 006:285 JLINK_ReadReg(R8)  returns 0x00000000 (0000ms, 0731ms total)
T3648 006:285 JLINK_ReadReg(R9)  returns 0x20000160 (0000ms, 0731ms total)
T3648 006:285 JLINK_ReadReg(R10)  returns 0x0805C634 (0000ms, 0731ms total)
T3648 006:285 JLINK_ReadReg(R11)  returns 0x00000000 (0000ms, 0731ms total)
T3648 006:285 JLINK_ReadReg(R12)  returns 0x20006DD0 (0000ms, 0731ms total)
T3648 006:285 JLINK_ReadReg(R13 (SP))  returns 0x200073E0 (0000ms, 0731ms total)
T3648 006:285 JLINK_ReadReg(R14)  returns 0x08016953 (0000ms, 0731ms total)
T3648 006:285 JLINK_ReadReg(R15 (PC))  returns 0x08016952 (0000ms, 0731ms total)
T3648 006:285 JLINK_ReadReg(XPSR)  returns 0x21000000 (0000ms, 0731ms total)
T3648 006:285 JLINK_ReadReg(MSP)  returns 0x200073E0 (0000ms, 0731ms total)
T3648 006:285 JLINK_ReadReg(PSP)  returns 0x20001000 (0000ms, 0731ms total)
T3648 006:285 JLINK_ReadReg(CFBP)  returns 0x00000000 (0000ms, 0731ms total)
T3188 006:285 JLINK_ReadMem (0x08016952, 0x0002 Bytes, ...) -- CPU_ReadMem(64 bytes @ 0x08016940) -- Updating C cache (64 bytes @ 0x08016940) -- Read from C cache (2 bytes @ 0x08016952) - Data: F5 F7  returns 0x00 (0001ms, 0732ms total)
T3188 006:286 JLINK_ReadMem (0x08016954, 0x003C Bytes, ...) -- CPU_ReadMem(64 bytes @ 0x08016980) -- Updating C cache (64 bytes @ 0x08016980) -- Read from C cache (60 bytes @ 0x08016954) - Data: B5 FE F0 F7 71 FE EE F7 33 F8 4F F4 E1 30 F3 F7 ...  returns 0x00 (0000ms, 0732ms total)
T3648 006:546 JLINK_SetBPEx(Addr = 0x08016956, Type = 0xFFFFFFF2)  returns 0x00000003 (0000ms, 0732ms total)
T3648 006:546 JLINK_Go() -- CPU_WriteMem(4 bytes @ 0xE0002000) -- CPU_ReadMem(4 bytes @ 0xE0001000) -- CPU_WriteMem(4 bytes @ 0xE0002008) (0001ms, 0733ms total)
T3648 006:648 JLINK_IsHalted()  returns TRUE (0001ms, 0734ms total)
T3648 006:649 JLINK_Halt()  returns 0x00 (0000ms, 0733ms total)
T3648 006:649 JLINK_IsHalted()  returns TRUE (0001ms, 0734ms total)
T3648 006:650 JLINK_IsHalted()  returns TRUE (0000ms, 0733ms total)
T3648 006:650 JLINK_IsHalted()  returns TRUE (0000ms, 0733ms total)
T3648 006:650 JLINK_ReadReg(R15 (PC))  returns 0x08016956 (0000ms, 0733ms total)
T3648 006:650 JLINK_ReadReg(XPSR)  returns 0x21000000 (0000ms, 0733ms total)
T3648 006:650 JLINK_ClrBPEx(BPHandle = 0x00000003)  returns 0x00 (0000ms, 0733ms total)
T3648 006:650 JLINK_ReadMemU32(0xE000ED30, 0x0001 Items, ...) -- CPU_ReadMem(4 bytes @ 0xE000ED30) - Data: 02 00 00 00  returns 0x01 (0000ms, 0733ms total)
T3648 006:650 JLINK_ReadMemU32(0xE0001028, 0x0001 Items, ...) -- CPU_ReadMem(4 bytes @ 0xE0001028) - Data: 00 00 00 00  returns 0x01 (0000ms, 0733ms total)
T3648 006:650 JLINK_ReadMemU32(0xE0001038, 0x0001 Items, ...) -- CPU_ReadMem(4 bytes @ 0xE0001038) - Data: 00 02 00 00  returns 0x01 (0000ms, 0733ms total)
T3648 006:650 JLINK_ReadMemU32(0xE0001048, 0x0001 Items, ...) -- CPU_ReadMem(4 bytes @ 0xE0001048) - Data: 00 00 00 00  returns 0x01 (0001ms, 0734ms total)
T3648 006:651 JLINK_ReadMemU32(0xE0001058, 0x0001 Items, ...) -- CPU_ReadMem(4 bytes @ 0xE0001058) - Data: 00 00 00 00  returns 0x01 (0000ms, 0734ms total)
T3648 006:651 JLINK_ReadReg(R0)  returns 0x00000007 (0000ms, 0734ms total)
T3648 006:651 JLINK_ReadReg(R1)  returns 0xE000E000 (0000ms, 0734ms total)
T3648 006:651 JLINK_ReadReg(R2)  returns 0xE000E000 (0000ms, 0734ms total)
T3648 006:651 JLINK_ReadReg(R3)  returns 0x20006FF0 (0000ms, 0734ms total)
T3648 006:651 JLINK_ReadReg(R4)  returns 0x0000000A (0001ms, 0735ms total)
T3648 006:652 JLINK_ReadReg(R5)  returns 0x08016C60 (0000ms, 0735ms total)
T3648 006:652 JLINK_ReadReg(R6)  returns 0x08016C6C (0000ms, 0735ms total)
T3648 006:652 JLINK_ReadReg(R7)  returns 0x00000000 (0000ms, 0735ms total)
T3648 006:652 JLINK_ReadReg(R8)  returns 0x00000000 (0000ms, 0735ms total)
T3648 006:652 JLINK_ReadReg(R9)  returns 0x20000160 (0000ms, 0735ms total)
T3648 006:652 JLINK_ReadReg(R10)  returns 0x0805C634 (0000ms, 0735ms total)
T3648 006:652 JLINK_ReadReg(R11)  returns 0x00000000 (0000ms, 0735ms total)
T3648 006:652 JLINK_ReadReg(R12)  returns 0x20006DD0 (0000ms, 0735ms total)
T3648 006:652 JLINK_ReadReg(R13 (SP))  returns 0x200073E0 (0000ms, 0735ms total)
T3648 006:652 JLINK_ReadReg(R14)  returns 0x0800C6C9 (0000ms, 0735ms total)
T3648 006:652 JLINK_ReadReg(R15 (PC))  returns 0x08016956 (0000ms, 0735ms total)
T3648 006:652 JLINK_ReadReg(XPSR)  returns 0x21000000 (0000ms, 0735ms total)
T3648 006:652 JLINK_ReadReg(MSP)  returns 0x200073E0 (0000ms, 0735ms total)
T3648 006:652 JLINK_ReadReg(PSP)  returns 0x20001000 (0000ms, 0735ms total)
T3648 006:652 JLINK_ReadReg(CFBP)  returns 0x00000000 (0000ms, 0735ms total)
T3648 006:752 JLINK_ReadMem (0x08016956, 0x0002 Bytes, ...) -- CPU_ReadMem(64 bytes @ 0x08016940) -- Updating C cache (64 bytes @ 0x08016940) -- Read from C cache (2 bytes @ 0x08016956) - Data: F0 F7  returns 0x00 (0001ms, 0736ms total)
T3648 006:753 JLINK_ReadMem (0x08016958, 0x003C Bytes, ...) -- CPU_ReadMem(64 bytes @ 0x08016980) -- Updating C cache (64 bytes @ 0x08016980) -- Read from C cache (60 bytes @ 0x08016958) - Data: 71 FE EE F7 33 F8 4F F4 E1 30 F3 F7 0D FE 4F F4 ...  returns 0x00 (0000ms, 0736ms total)
T3648 006:753 JLINK_SetBPEx(Addr = 0x0801695A, Type = 0xFFFFFFF2)  returns 0x00000004 (0000ms, 0736ms total)
T3648 006:753 JLINK_Go() -- CPU_WriteMem(4 bytes @ 0xE0002000) -- CPU_ReadMem(4 bytes @ 0xE0001000) -- CPU_WriteMem(4 bytes @ 0xE0002008) (0002ms, 0738ms total)
T3648 006:855 JLINK_IsHalted()  returns FALSE (0000ms, 0738ms total)
T3648 006:957 JLINK_IsHalted()  returns FALSE (0000ms, 0738ms total)
T3648 007:058 JLINK_IsHalted()  returns FALSE (0000ms, 0738ms total)
T3648 007:159 JLINK_IsHalted()  returns FALSE (0000ms, 0738ms total)
T3648 007:260 JLINK_IsHalted()  returns TRUE (0002ms, 0740ms total)
T3648 007:262 JLINK_Halt()  returns 0x00 (0000ms, 0738ms total)
T3648 007:262 JLINK_IsHalted()  returns TRUE (0000ms, 0738ms total)
T3648 007:262 JLINK_IsHalted()  returns TRUE (0000ms, 0738ms total)
T3648 007:262 JLINK_IsHalted()  returns TRUE (0000ms, 0738ms total)
T3648 007:262 JLINK_ReadReg(R15 (PC))  returns 0x0801695A (0000ms, 0738ms total)
T3648 007:262 JLINK_ReadReg(XPSR)  returns 0x61000000 (0000ms, 0738ms total)
T3648 007:262 JLINK_ClrBPEx(BPHandle = 0x00000004)  returns 0x00 (0000ms, 0738ms total)
T3648 007:262 JLINK_ReadMemU32(0xE000ED30, 0x0001 Items, ...) -- CPU_ReadMem(4 bytes @ 0xE000ED30) - Data: 02 00 00 00  returns 0x01 (0001ms, 0739ms total)
T3648 007:263 JLINK_ReadMemU32(0xE0001028, 0x0001 Items, ...) -- CPU_ReadMem(4 bytes @ 0xE0001028) - Data: 00 00 00 00  returns 0x01 (0000ms, 0739ms total)
T3648 007:263 JLINK_ReadMemU32(0xE0001038, 0x0001 Items, ...) -- CPU_ReadMem(4 bytes @ 0xE0001038) - Data: 00 02 00 00  returns 0x01 (0000ms, 0739ms total)
T3648 007:263 JLINK_ReadMemU32(0xE0001048, 0x0001 Items, ...) -- CPU_ReadMem(4 bytes @ 0xE0001048) - Data: 00 00 00 00  returns 0x01 (0001ms, 0740ms total)
T3648 007:264 JLINK_ReadMemU32(0xE0001058, 0x0001 Items, ...) -- CPU_ReadMem(4 bytes @ 0xE0001058) - Data: 00 00 00 00  returns 0x01 (0000ms, 0740ms total)
T3648 007:264 JLINK_ReadReg(R0)  returns 0x00000000 (0000ms, 0740ms total)
T3648 007:264 JLINK_ReadReg(R1)  returns 0x00000040 (0000ms, 0740ms total)
T3648 007:264 JLINK_ReadReg(R2)  returns 0x20007358 (0000ms, 0740ms total)
T3648 007:264 JLINK_ReadReg(R3)  returns 0x14030010 (0000ms, 0740ms total)
T3648 007:264 JLINK_ReadReg(R4)  returns 0x0000000A (0000ms, 0740ms total)
T3648 007:264 JLINK_ReadReg(R5)  returns 0x08016C60 (0000ms, 0740ms total)
T3648 007:264 JLINK_ReadReg(R6)  returns 0x08016C6C (0000ms, 0740ms total)
T3648 007:264 JLINK_ReadReg(R7)  returns 0x00000000 (0000ms, 0740ms total)
T3648 007:264 JLINK_ReadReg(R8)  returns 0x00000000 (0001ms, 0741ms total)
T3648 007:265 JLINK_ReadReg(R9)  returns 0x20000160 (0000ms, 0741ms total)
T3648 007:265 JLINK_ReadReg(R10)  returns 0x0805C634 (0000ms, 0741ms total)
T3648 007:265 JLINK_ReadReg(R11)  returns 0x00000000 (0000ms, 0741ms total)
T3648 007:265 JLINK_ReadReg(R12)  returns 0x00000010 (0000ms, 0741ms total)
T3648 007:265 JLINK_ReadReg(R13 (SP))  returns 0x200073E0 (0000ms, 0741ms total)
T3648 007:265 JLINK_ReadReg(R14)  returns 0x0800D1FF (0000ms, 0741ms total)
T3648 007:265 JLINK_ReadReg(R15 (PC))  returns 0x0801695A (0000ms, 0741ms total)
T3648 007:265 JLINK_ReadReg(XPSR)  returns 0x61000000 (0000ms, 0741ms total)
T3648 007:265 JLINK_ReadReg(MSP)  returns 0x200073E0 (0000ms, 0741ms total)
T3648 007:265 JLINK_ReadReg(PSP)  returns 0x20001000 (0000ms, 0741ms total)
T3648 007:265 JLINK_ReadReg(CFBP)  returns 0x00000000 (0000ms, 0741ms total)
T3188 007:265 JLINK_ReadMem (0x0801695A, 0x0002 Bytes, ...) -- CPU_ReadMem(64 bytes @ 0x08016940) -- Updating C cache (64 bytes @ 0x08016940) -- Read from C cache (2 bytes @ 0x0801695A) - Data: EE F7  returns 0x00 (0001ms, 0742ms total)
T3188 007:266 JLINK_ReadMem (0x0801695C, 0x003C Bytes, ...) -- CPU_ReadMem(64 bytes @ 0x08016980) -- Updating C cache (64 bytes @ 0x08016980) -- Read from C cache (60 bytes @ 0x0801695C) - Data: 33 F8 4F F4 E1 30 F3 F7 0D FE 4F F4 E1 30 F3 F7 ...  returns 0x00 (0000ms, 0742ms total)
T3648 007:794 JLINK_SetBPEx(Addr = 0x0801695E, Type = 0xFFFFFFF2)  returns 0x00000005 (0001ms, 0743ms total)
T3648 007:795 JLINK_Go() -- CPU_WriteMem(4 bytes @ 0xE0002000) -- CPU_ReadMem(4 bytes @ 0xE0001000) -- CPU_WriteMem(4 bytes @ 0xE0002008) (0001ms, 0744ms total)
T3648 007:897 JLINK_IsHalted()  returns TRUE (0002ms, 0746ms total)
T3648 007:899 JLINK_Halt()  returns 0x00 (0000ms, 0744ms total)
T3648 007:899 JLINK_IsHalted()  returns TRUE (0000ms, 0744ms total)
T3648 007:899 JLINK_IsHalted()  returns TRUE (0000ms, 0744ms total)
T3648 007:899 JLINK_IsHalted()  returns TRUE (0000ms, 0744ms total)
T3648 007:899 JLINK_ReadReg(R15 (PC))  returns 0x0801695E (0000ms, 0744ms total)
T3648 007:899 JLINK_ReadReg(XPSR)  returns 0x01000000 (0000ms, 0744ms total)
T3648 007:899 JLINK_ClrBPEx(BPHandle = 0x00000005)  returns 0x00 (0000ms, 0744ms total)
T3648 007:899 JLINK_ReadMemU32(0xE000ED30, 0x0001 Items, ...) -- CPU_ReadMem(4 bytes @ 0xE000ED30) - Data: 02 00 00 00  returns 0x01 (0001ms, 0745ms total)
T3648 007:900 JLINK_ReadMemU32(0xE0001028, 0x0001 Items, ...) -- CPU_ReadMem(4 bytes @ 0xE0001028) - Data: 00 00 00 00  returns 0x01 (0000ms, 0745ms total)
T3648 007:900 JLINK_ReadMemU32(0xE0001038, 0x0001 Items, ...) -- CPU_ReadMem(4 bytes @ 0xE0001038) - Data: 00 02 00 00  returns 0x01 (0001ms, 0746ms total)
T3648 007:901 JLINK_ReadMemU32(0xE0001048, 0x0001 Items, ...) -- CPU_ReadMem(4 bytes @ 0xE0001048) - Data: 00 00 00 00  returns 0x01 (0000ms, 0746ms total)
T3648 007:901 JLINK_ReadMemU32(0xE0001058, 0x0001 Items, ...) -- CPU_ReadMem(4 bytes @ 0xE0001058) - Data: 00 00 00 00  returns 0x01 (0001ms, 0747ms total)
T3648 007:902 JLINK_ReadReg(R0)  returns 0x40010800 (0000ms, 0747ms total)
T3648 007:902 JLINK_ReadReg(R1)  returns 0x00000002 (0000ms, 0747ms total)
T3648 007:902 JLINK_ReadReg(R2)  returns 0x40010800 (0000ms, 0747ms total)
T3648 007:902 JLINK_ReadReg(R3)  returns 0x10030002 (0000ms, 0747ms total)
T3648 007:902 JLINK_ReadReg(R4)  returns 0x0000000A (0000ms, 0747ms total)
T3648 007:902 JLINK_ReadReg(R5)  returns 0x08016C60 (0000ms, 0747ms total)
T3648 007:902 JLINK_ReadReg(R6)  returns 0x08016C6C (0000ms, 0747ms total)
T3648 007:902 JLINK_ReadReg(R7)  returns 0x00000000 (0000ms, 0747ms total)
T3648 007:902 JLINK_ReadReg(R8)  returns 0x00000000 (0000ms, 0747ms total)
T3648 007:902 JLINK_ReadReg(R9)  returns 0x20000160 (0000ms, 0747ms total)
T3648 007:902 JLINK_ReadReg(R10)  returns 0x0805C634 (0000ms, 0747ms total)
T3648 007:902 JLINK_ReadReg(R11)  returns 0x00000000 (0000ms, 0747ms total)
T3648 007:902 JLINK_ReadReg(R12)  returns 0x00000002 (0000ms, 0747ms total)
T3648 007:902 JLINK_ReadReg(R13 (SP))  returns 0x200073E0 (0001ms, 0748ms total)
T3648 007:903 JLINK_ReadReg(R14)  returns 0x080049F1 (0000ms, 0748ms total)
T3648 007:903 JLINK_ReadReg(R15 (PC))  returns 0x0801695E (0000ms, 0748ms total)
T3648 007:903 JLINK_ReadReg(XPSR)  returns 0x01000000 (0000ms, 0748ms total)
T3648 007:903 JLINK_ReadReg(MSP)  returns 0x200073E0 (0000ms, 0748ms total)
T3648 007:903 JLINK_ReadReg(PSP)  returns 0x20001000 (0000ms, 0748ms total)
T3648 007:903 JLINK_ReadReg(CFBP)  returns 0x00000000 (0000ms, 0748ms total)
T3648 008:009 JLINK_ReadMem (0x0801695E, 0x0002 Bytes, ...) -- CPU_ReadMem(64 bytes @ 0x08016940) -- Updating C cache (64 bytes @ 0x08016940) -- Read from C cache (2 bytes @ 0x0801695E) - Data: 4F F4  returns 0x00 (0000ms, 0748ms total)
T3648 008:009 JLINK_ReadMem (0x08016960, 0x003C Bytes, ...) -- CPU_ReadMem(64 bytes @ 0x08016980) -- Updating C cache (64 bytes @ 0x08016980) -- Read from C cache (60 bytes @ 0x08016960) - Data: E1 30 F3 F7 0D FE 4F F4 E1 30 F3 F7 B1 FE 4F F4 ...  returns 0x00 (0001ms, 0749ms total)
T3648 008:010 JLINK_Step() -- Read from C cache (2 bytes @ 0x0801695E) -- CPU_ReadMem(4 bytes @ 0xE0001004) -- Read from C cache (2 bytes @ 0x08016960) -- Simulated  returns 0x00 (0000ms, 0749ms total)
T3648 008:010 JLINK_ReadReg(R15 (PC))  returns 0x08016962 (0000ms, 0749ms total)
T3648 008:010 JLINK_ReadReg(XPSR)  returns 0x01000000 (0000ms, 0749ms total)
T3648 008:010 JLINK_SetBPEx(Addr = 0x08016966, Type = 0xFFFFFFF2)  returns 0x00000006 (0000ms, 0749ms total)
T3648 008:010 JLINK_Go() -- CPU_WriteMem(4 bytes @ 0xE0002000) -- CPU_ReadMem(4 bytes @ 0xE0001000) -- CPU_WriteMem(4 bytes @ 0xE0002008) -- CPU_WriteMem(4 bytes @ 0xE0001004) (0002ms, 0751ms total)
T3648 008:113 JLINK_IsHalted()  returns TRUE (0002ms, 0753ms total)
T3648 008:115 JLINK_Halt()  returns 0x00 (0000ms, 0751ms total)
T3648 008:115 JLINK_IsHalted()  returns TRUE (0000ms, 0751ms total)
T3648 008:115 JLINK_IsHalted()  returns TRUE (0000ms, 0751ms total)
T3648 008:115 JLINK_IsHalted()  returns TRUE (0000ms, 0751ms total)
T3648 008:115 JLINK_ReadReg(R15 (PC))  returns 0x08016966 (0000ms, 0751ms total)
T3648 008:115 JLINK_ReadReg(XPSR)  returns 0x01000000 (0000ms, 0751ms total)
T3648 008:115 JLINK_ClrBPEx(BPHandle = 0x00000006)  returns 0x00 (0000ms, 0751ms total)
T3648 008:115 JLINK_ReadMemU32(0xE000ED30, 0x0001 Items, ...) -- CPU_ReadMem(4 bytes @ 0xE000ED30) - Data: 02 00 00 00  returns 0x01 (0001ms, 0752ms total)
T3648 008:116 JLINK_ReadMemU32(0xE0001028, 0x0001 Items, ...) -- CPU_ReadMem(4 bytes @ 0xE0001028) - Data: 00 00 00 00  returns 0x01 (0000ms, 0752ms total)
T3648 008:116 JLINK_ReadMemU32(0xE0001038, 0x0001 Items, ...) -- CPU_ReadMem(4 bytes @ 0xE0001038) - Data: 00 02 00 00  returns 0x01 (0001ms, 0753ms total)
T3648 008:117 JLINK_ReadMemU32(0xE0001048, 0x0001 Items, ...) -- CPU_ReadMem(4 bytes @ 0xE0001048) - Data: 00 00 00 00  returns 0x01 (0000ms, 0753ms total)
T3648 008:117 JLINK_ReadMemU32(0xE0001058, 0x0001 Items, ...) -- CPU_ReadMem(4 bytes @ 0xE0001058) - Data: 00 00 00 00  returns 0x01 (0001ms, 0754ms total)
T3648 008:118 JLINK_ReadReg(R0)  returns 0x40013800 (0000ms, 0754ms total)
T3648 008:118 JLINK_ReadReg(R1)  returns 0x00000001 (0000ms, 0754ms total)
T3648 008:118 JLINK_ReadReg(R2)  returns 0x0000202C (0000ms, 0754ms total)
T3648 008:118 JLINK_ReadReg(R3)  returns 0x40013800 (0000ms, 0754ms total)
T3648 008:118 JLINK_ReadReg(R4)  returns 0x0000000A (0000ms, 0754ms total)
T3648 008:118 JLINK_ReadReg(R5)  returns 0x08016C60 (0000ms, 0754ms total)
T3648 008:118 JLINK_ReadReg(R6)  returns 0x08016C6C (0000ms, 0754ms total)
T3648 008:118 JLINK_ReadReg(R7)  returns 0x00000000 (0000ms, 0754ms total)
T3648 008:118 JLINK_ReadReg(R8)  returns 0x00000000 (0000ms, 0754ms total)
T3648 008:118 JLINK_ReadReg(R9)  returns 0x20000160 (0000ms, 0754ms total)
T3648 008:118 JLINK_ReadReg(R10)  returns 0x0805C634 (0000ms, 0754ms total)
T3648 008:118 JLINK_ReadReg(R11)  returns 0x00000000 (0000ms, 0754ms total)
T3648 008:118 JLINK_ReadReg(R12)  returns 0x00000400 (0000ms, 0754ms total)
T3648 008:118 JLINK_ReadReg(R13 (SP))  returns 0x200073E0 (0000ms, 0754ms total)
T3648 008:118 JLINK_ReadReg(R14)  returns 0x0800A621 (0000ms, 0754ms total)
T3648 008:118 JLINK_ReadReg(R15 (PC))  returns 0x08016966 (0000ms, 0754ms total)
T3648 008:118 JLINK_ReadReg(XPSR)  returns 0x01000000 (0000ms, 0754ms total)
T3648 008:118 JLINK_ReadReg(MSP)  returns 0x200073E0 (0000ms, 0754ms total)
T3648 008:118 JLINK_ReadReg(PSP)  returns 0x20001000 (0000ms, 0754ms total)
T3648 008:118 JLINK_ReadReg(CFBP)  returns 0x00000000 (0000ms, 0754ms total)
T3188 008:119 JLINK_ReadMem (0x08016966, 0x0002 Bytes, ...) -- CPU_ReadMem(64 bytes @ 0x08016940) -- Updating C cache (64 bytes @ 0x08016940) -- Read from C cache (2 bytes @ 0x08016966) - Data: 4F F4  returns 0x00 (0001ms, 0755ms total)
T3188 008:120 JLINK_ReadMem (0x08016968, 0x003C Bytes, ...) -- CPU_ReadMem(64 bytes @ 0x08016980) -- Updating C cache (64 bytes @ 0x08016980) -- Read from C cache (60 bytes @ 0x08016968) - Data: E1 30 F3 F7 B1 FE 4F F4 16 40 F3 F7 85 FF 4F F4 ...  returns 0x00 (0000ms, 0755ms total)
T3648 008:233 JLINK_Step() -- Read from C cache (2 bytes @ 0x08016966) -- CPU_ReadMem(4 bytes @ 0xE0001004) -- Read from C cache (2 bytes @ 0x08016968) -- Simulated  returns 0x00 (0000ms, 0755ms total)
T3648 008:233 JLINK_ReadReg(R15 (PC))  returns 0x0801696A (0000ms, 0755ms total)
T3648 008:233 JLINK_ReadReg(XPSR)  returns 0x01000000 (0001ms, 0756ms total)
T3648 008:234 JLINK_SetBPEx(Addr = 0x0801696E, Type = 0xFFFFFFF2)  returns 0x00000007 (0000ms, 0756ms total)
T3648 008:234 JLINK_Go() -- CPU_WriteMem(4 bytes @ 0xE0002000) -- CPU_ReadMem(4 bytes @ 0xE0001000) -- CPU_WriteMem(4 bytes @ 0xE0002008) -- CPU_WriteMem(4 bytes @ 0xE0001004) (0001ms, 0757ms total)
T3648 008:336 JLINK_IsHalted()  returns TRUE (0002ms, 0759ms total)
T3648 008:338 JLINK_Halt()  returns 0x00 (0000ms, 0757ms total)
T3648 008:338 JLINK_IsHalted()  returns TRUE (0000ms, 0757ms total)
T3648 008:338 JLINK_IsHalted()  returns TRUE (0000ms, 0757ms total)
T3648 008:338 JLINK_IsHalted()  returns TRUE (0000ms, 0757ms total)
T3648 008:338 JLINK_ReadReg(R15 (PC))  returns 0x0801696E (0000ms, 0757ms total)
T3648 008:338 JLINK_ReadReg(XPSR)  returns 0x61000000 (0000ms, 0757ms total)
T3648 008:338 JLINK_ClrBPEx(BPHandle = 0x00000007)  returns 0x00 (0000ms, 0757ms total)
T3648 008:338 JLINK_ReadMemU32(0xE000ED30, 0x0001 Items, ...) -- CPU_ReadMem(4 bytes @ 0xE000ED30) - Data: 02 00 00 00  returns 0x01 (0000ms, 0757ms total)
